
T1844 000:377 SEGGER J-Link V4.35b (beta) Log File (0000ms, 0374ms total)
T1844 000:377 DLL Compiled: Sep  2 2011 18:34:46 (0000ms, 0374ms total)
T1844 000:377 Logging started @ 2016-09-01 16:27 (0000ms, 0374ms total)
T1844 000:377 JLINK_SetWarnOutHandler(...) (0000ms, 0374ms total)
T1844 000:377 JLINK_OpenEx(...)
Firmware: J-Link ARM-OB STM32 compiled Aug 22 2012 19:52:04
Hardware: V7.00
S/N: 20160109
Feature(s): RDI,FlashDL,FlashBP,JFlash,GDBFull  returns O.K. (0192ms, 0374ms total)
T1844 000:569 JLINK_SetErrorOutHandler(...) (0000ms, 0566ms total)
T1844 000:570 JLINK_ExecCommand("Device = STM32F105R8", ...)
                JLINK_ExecCommand("map ram 0x20000000 - 0x20004FFF", ...)  returns 0x00 (0000ms, 0000ms total)
                JLINK_AddMirrorAreaEx(Addr = 0x00000000, Size = 0x00000000) (0000ms, 0000ms total)
              Device "STM32F105R8" selected (64 KB flash, 20 KB RAM).  returns 0x00 (0001ms, 0566ms total)
T1844 000:573 JLINK_ExecCommand("ProjectFile = "F:\Develop\ADAS\Code\CAN\doing\STM32105_collect_board\MDK\JLinkSettings.ini"", ...)  returns 0x00 (0000ms, 0567ms total)
T1844 000:575 JLINK_ExecCommand("DisableConnectionTimeout", ...)  returns 0x00 (0000ms, 0567ms total)
T1844 000:576 JLINK_TIF_Select(JLINKARM_TIF_SWD)  returns 0x00 (0004ms, 0567ms total)
T1844 000:580 JLINK_SetSpeed(2000) (0001ms, 0571ms total)
T1844 000:581 JLINK_GetHardwareVersion()  returns 0x11170 (0000ms, 0572ms total)
T1844 000:581 JLINK_GetDLLVersion()  returns 43502 (0000ms, 0572ms total)
T1844 000:581 JLINK_GetFirmwareString(...) (0000ms, 0572ms total)
T1844 000:581 JLINK_GetDLLVersion()  returns 43502 (0000ms, 0572ms total)
T1844 000:581 JLINK_GetCompileDateTime() (0000ms, 0572ms total)
T1844 000:581 JLINK_GetFirmwareString(...) (0000ms, 0572ms total)
T1844 000:581 JLINK_GetHardwareVersion()  returns 0x11170 (0001ms, 0572ms total)
T1844 000:582 JLINK_GetId() >0x108 TIF>Found SWD-DP with ID 0x1BA01477 >0x33 TIF> >0x33 TIF> >0x35 TIF> >0x33 TIF> >0x35 TIF> >0x33 TIF> >0x33 TIF> >0x35 TIF> >0x33 TIF> >0x33 TIF> >0x35 TIF> >0x33 TIF> >0x33 TIF> >0x35 TIF> >0x33 TIF> >0x33 TIF> >0x35 TIF> >0x35 TIF> >0x35 TIF> >0x35 TIF> >0x35 TIF> >0x33 TIF> >0x33 TIF> >0x35 TIF> >0x33 TIF> >0x33 TIF> >0x33 TIF>TPIU fitted.ETM fitted. >0x35 TIF> >0x33 TIF> >0x33 TIF> >0x35 TIF> >0x33 TIF> >0x33 TIF>  FPUnit: 6 code (BP) slots and 2 literal slots
 >0x35 TIF> >0x33 TIF> >0x33 TIF> >0x35 TIF> >0x33 TIF> >0x33 TIF> >0x35 TIF> >0x33 TIF> >0x33 TIF>Found Cortex-M3 r1p1, Little endian. >0x33 TIF>  returns 0x1BA01477 (0047ms, 0573ms total)
T1844 000:629 JLINK_GetDebugInfo(0x100) -- Value=0xE00FF003  returns 0x00 (0000ms, 0620ms total)
T1844 000:629 JLINK_ReadMem (0xE00FFFF0, 0x0010 Bytes, ...) -- CPU is running -- CPU_ReadMem(16 bytes @ 0xE00FFFF0) -- Data:  0D 00 00 00 10 00 00 00 05 00 00 00 B1 00 00 00  returns 0x00 (0003ms, 0620ms total)
T1844 000:632 JLINK_ReadMem (0xE00FFFD0, 0x0020 Bytes, ...) -- CPU is running -- CPU_ReadMem(32 bytes @ 0xE00FFFD0) -- Data:  00 00 00 00 00 00 00 00 00 00 00 00 00 00 00 00 ...  returns 0x00 (0001ms, 0623ms total)
T1844 000:633 JLINK_ReadMem (0xE00FF000, 0x0018 Bytes, ...) -- CPU is running -- CPU_ReadMem(24 bytes @ 0xE00FF000) -- Data:  03 F0 F0 FF 03 20 F0 FF 03 30 F0 FF 03 10 F0 FF ...  returns 0x00 (0001ms, 0624ms total)
T1844 000:634 JLINK_ReadMemU32(0xE000ED00, 0x0001 Items, ...) -- CPU is running -- CPU_ReadMem(4 bytes @ 0xE000ED00) -- Data:  31 C2 1F 41  returns 0x01 (0001ms, 0625ms total)
T1844 000:635 JLINK_SetResetType(JLINKARM_RESET_TYPE_NORMAL)  returns JLINKARM_RESET_TYPE_NORMAL (0000ms, 0626ms total)
T1844 000:635 JLINK_Reset() >0x108 TIF>Found SWD-DP with ID 0x1BA01477 >0x33 TIF> >0x33 TIF> >0x35 TIF> >0x33 TIF> >0x35 TIF> >0x33 TIF> >0x33 TIF> >0x35 TIF> >0x33 TIF> >0x33 TIF> >0x35 TIF> >0x33 TIF> >0x33 TIF> >0x35 TIF> >0x33 TIF> >0x33 TIF> >0x35 TIF> >0x35 TIF> >0x35 TIF> >0x35 TIF> >0x35 TIF> >0x33 TIF> >0x33 TIF> >0x35 TIF> >0x33 TIF> >0x33 TIF> >0x33 TIF>TPIU fitted.ETM fitted. >0x35 TIF> >0x33 TIF> >0x33 TIF> >0x35 TIF> >0x33 TIF> >0x33 TIF>  FPUnit: 6 code (BP) slots and 2 literal slots
 >0x35 TIF> >0x33 TIF> >0x33 TIF> >0x35 TIF> >0x33 TIF> >0x33 TIF> >0x35 TIF> >0x33 TIF> >0x33 TIF>Found Cortex-M3 r1p1, Little endian. -- CPU is running -- CPU_WriteMem(4 bytes @ 0xE000EDF0) -- CPU is running -- CPU_WriteMem(4 bytes @ 0xE000EDFC) >0x35 TIF> -- CPU is running -- CPU_WriteMem(4 bytes @ 0xE000ED0C) -- CPU is running -- CPU_ReadMem(4 bytes @ 0xE000EDF0) -- CPU is running -- CPU_ReadMem(4 bytes @ 0xE000EDF0) -- CPU is running -- CPU_WriteMem(4 bytes @ 0xE000EDF0) -- CPU is running
 -- CPU_WriteMem(4 bytes @ 0xE000EDFC) -- CPU is running -- CPU_ReadMem(4 bytes @ 0xE000EDF0) (0068ms, 0626ms total)
T1844 000:704 JLINK_ReadReg(R15)  returns 0x080033A8 (0000ms, 0694ms total)
T1844 000:704 JLINK_ReadReg(XPSR)  returns 0x01000000 (0000ms, 0694ms total)
T1844 000:704 JLINK_Halt()  returns 0x00 (0000ms, 0694ms total)
T1844 000:704 JLINK_IsHalted()  returns TRUE (0000ms, 0694ms total)
T1844 000:704 JLINK_ReadMemU32(0xE000EDF0, 0x0001 Items, ...) -- CPU_ReadMem(4 bytes @ 0xE000EDF0) -- Data:  03 00 03 00  returns 0x01 (0001ms, 0694ms total)
T1844 000:705 JLINK_WriteU32(0xE000EDF0, 0xA05F0003) -- CPU_WriteMem(4 bytes @ 0xE000EDF0)  returns 0x00 (0001ms, 0695ms total)
T1844 000:707 JLINK_WriteU32(0xE000EDFC, 0x01000000) -- CPU_WriteMem(4 bytes @ 0xE000EDFC)  returns 0x00 (0001ms, 0697ms total)
T1844 000:708 JLINK_ReadMemU32(0xE0002000, 0x0001 Items, ...) -- CPU_ReadMem(4 bytes @ 0xE0002000) -- Data:  60 02 00 00  returns 0x01 (0002ms, 0698ms total)
T1844 000:710 JLINK_ReadMemU32(0xE0001000, 0x0001 Items, ...) -- CPU_ReadMem(4 bytes @ 0xE0001000) -- Data:  01 00 00 40  returns 0x01 (0001ms, 0700ms total)
T1844 000:711 JLINK_WriteU32(0xE0001028, 0x00000000) -- CPU_WriteMem(4 bytes @ 0xE0001028)  returns 0x00 (0001ms, 0701ms total)
T1844 000:712 JLINK_WriteU32(0xE0001038, 0x00000000) -- CPU_WriteMem(4 bytes @ 0xE0001038)  returns 0x00 (0001ms, 0702ms total)
T1844 000:713 JLINK_WriteU32(0xE0001048, 0x00000000) -- CPU_WriteMem(4 bytes @ 0xE0001048)  returns 0x00 (0001ms, 0703ms total)
T1844 000:714 JLINK_WriteU32(0xE0001058, 0x00000000) -- CPU_WriteMem(4 bytes @ 0xE0001058)  returns 0x00 (0001ms, 0704ms total)
T1844 000:716 JLINK_GetHWStatus(...)  returns 0x00 (0000ms, 0705ms total)
T1844 000:717 JLINK_GetNumBPUnits(Type = 0xFFFFFF00)  returns 0x06 (0000ms, 0705ms total)
T1844 000:717 JLINK_GetNumBPUnits(Type = 0xF0)  returns 0x2000 (0000ms, 0705ms total)
T1844 000:717 JLINK_GetNumWPUnits()  returns 0x00 (0000ms, 0705ms total)
T1844 000:717 JLINK_GetSpeed()  returns 0x7D0 (0000ms, 0705ms total)
T1844 000:717 JLINK_ReadMemU32(0xE000E004, 0x0001 Items, ...) -- CPU_ReadMem(4 bytes @ 0xE000E004) -- Data:  02 00 00 00  returns 0x01 (0001ms, 0705ms total)
T1844 000:719 JLINK_ReadMemU32(0xE000E004, 0x0001 Items, ...) -- CPU_ReadMem(4 bytes @ 0xE000E004) -- Data:  02 00 00 00  returns 0x01 (0001ms, 0707ms total)
T1844 000:720 JLINK_WriteMem(0xE0001000, 0x001C Bytes, ...) -- Data:  01 00 00 00 00 00 00 00 00 00 00 00 00 00 00 00 ... -- CPU_WriteMem(28 bytes @ 0xE0001000)  returns 0x1C (0001ms, 0708ms total)
T1844 000:721 JLINK_ReadMem (0xE0001000, 0x001C Bytes, ...) -- CPU_ReadMem(28 bytes @ 0xE0001000) -- Data:  01 00 00 40 00 00 00 00 00 00 00 00 00 00 00 00 ...  returns 0x00 (0002ms, 0709ms total)
T1844 000:724 JLINK_ReadReg(R15)  returns 0x080033A8 (0000ms, 0711ms total)
T1844 000:724 JLINK_ReadReg(XPSR)  returns 0x01000000 (0000ms, 0711ms total)
T1844 000:849 JLINK_SetResetType(JLINKARM_RESET_TYPE_NORMAL)  returns JLINKARM_RESET_TYPE_NORMAL (0000ms, 0711ms total)
T1844 000:849 JLINK_Reset() >0x108 TIF>Found SWD-DP with ID 0x1BA01477 >0x33 TIF> >0x33 TIF> >0x35 TIF> >0x33 TIF> >0x35 TIF> >0x33 TIF> >0x33 TIF> >0x35 TIF> >0x33 TIF> >0x33 TIF> >0x35 TIF> >0x33 TIF> >0x33 TIF> >0x35 TIF> >0x33 TIF> >0x33 TIF> >0x35 TIF> >0x35 TIF> >0x35 TIF> >0x35 TIF> >0x35 TIF> >0x33 TIF> >0x33 TIF> >0x35 TIF> >0x33 TIF> >0x33 TIF> >0x33 TIF>TPIU fitted.ETM fitted. >0x35 TIF> >0x33 TIF> >0x33 TIF> >0x35 TIF> >0x33 TIF> >0x33 TIF>  FPUnit: 6 code (BP) slots and 2 literal slots
 >0x35 TIF> >0x33 TIF> >0x33 TIF> >0x35 TIF> >0x33 TIF> >0x33 TIF> >0x35 TIF> >0x33 TIF> >0x33 TIF>Found Cortex-M3 r1p1, Little endian. -- CPU_WriteMem(4 bytes @ 0xE000EDF0) -- CPU_WriteMem(4 bytes @ 0xE000EDFC) >0x35 TIF> -- CPU_WriteMem(4 bytes @ 0xE000ED0C) -- CPU_ReadMem(4 bytes @ 0xE000EDF0) -- CPU_ReadMem(4 bytes @ 0xE000EDF0) -- CPU_WriteMem(4 bytes @ 0xE000EDF0) -- CPU_WriteMem(4 bytes @ 0xE000EDFC) -- CPU is running -- CPU_ReadMem(4 bytes @ 0xE000EDF0) (0071ms, 0711ms total)
T1844 000:920 JLINK_ReadReg(R15)  returns 0x080033A8 (0000ms, 0782ms total)
T1844 000:920 JLINK_ReadReg(XPSR)  returns 0x01000000 (0000ms, 0782ms total)
T1844 000:925 JLINK_ReadMem (0x080033A8, 0x003C Bytes, ...) -- CPU_ReadMem(128 bytes @ 0x08003380) -- Updating C cache (128 bytes @ 0x08003380) -- Read from C cache (60 bytes @ 0x080033A8) -- Data:  09 48 80 47 09 48 00 47 FE E7 FE E7 FE E7 FE E7 ...  returns 0x00 (0002ms, 0782ms total)
T1844 001:050 JLINK_ReadReg(R0)  returns 0x00000000 (0001ms, 0784ms total)
T1844 001:051 JLINK_ReadReg(R1)  returns 0x00000003 (0000ms, 0785ms total)
T1844 001:051 JLINK_ReadReg(R2)  returns 0x40022000 (0000ms, 0785ms total)
T1844 001:051 JLINK_ReadReg(R3)  returns 0x04C11DB7 (0000ms, 0785ms total)
T1844 001:051 JLINK_ReadReg(R4)  returns 0x00000000 (0000ms, 0785ms total)
T1844 001:051 JLINK_ReadReg(R5)  returns 0x00000000 (0000ms, 0785ms total)
T1844 001:051 JLINK_ReadReg(R6)  returns 0x00000000 (0000ms, 0785ms total)
T1844 001:051 JLINK_ReadReg(R7)  returns 0x00000000 (0000ms, 0785ms total)
T1844 001:051 JLINK_ReadReg(R8)  returns 0x00000000 (0000ms, 0785ms total)
T1844 001:051 JLINK_ReadReg(R9)  returns 0x20000160 (0000ms, 0785ms total)
T1844 001:051 JLINK_ReadReg(R10)  returns 0x00000000 (0000ms, 0785ms total)
T1844 001:051 JLINK_ReadReg(R11)  returns 0x00000000 (0000ms, 0785ms total)
T1844 001:051 JLINK_ReadReg(R12)  returns 0x00000000 (0000ms, 0785ms total)
T1844 001:051 JLINK_ReadReg(R13)  returns 0x20000EE8 (0000ms, 0785ms total)
T1844 001:051 JLINK_ReadReg(R14)  returns 0xFFFFFFFF (0000ms, 0785ms total)
T1844 001:051 JLINK_ReadReg(R15)  returns 0x080033A8 (0000ms, 0785ms total)
T1844 001:051 JLINK_ReadReg(XPSR)  returns 0x01000000 (0000ms, 0785ms total)
T1844 001:051 JLINK_ReadReg(MSP)  returns 0x20000EE8 (0000ms, 0785ms total)
T1844 001:051 JLINK_ReadReg(PSP)  returns 0x20000800 (0000ms, 0785ms total)
T1844 001:051 JLINK_ReadReg(BASEPRI)  returns 0x00000000 (0000ms, 0785ms total)
T1844 001:051 JLINK_ReadReg(CONTROL)  returns 0x00000000 (0000ms, 0785ms total)
T1844 001:051 JLINK_ReadReg(FAULTMASK)  returns 0x00000000 (0000ms, 0785ms total)
T1844 001:051 JLINK_ReadReg(BASEPRI_MAX)  returns 0x00000000 (0000ms, 0785ms total)
T19CC 003:575 JLINK_SetBPEx(Addr = 0x08000424, Type = 0xFFFFFFF2)  returns 0x00000001 (0002ms, 0785ms total)
T19CC 003:577 JLINK_Go() -- CPU_WriteMem(4 bytes @ 0xE0002000) -- CPU_WriteMem(4 bytes @ 0xE0002008) -- CPU_WriteMem(4 bytes @ 0xE000200C) -- CPU_WriteMem(4 bytes @ 0xE0002010) -- CPU_WriteMem(4 bytes @ 0xE0002014) -- CPU_WriteMem(4 bytes @ 0xE0002018) -- CPU_WriteMem(4 bytes @ 0xE000201C) (0011ms, 0787ms total)
T19CC 003:688 JLINK_IsHalted()  returns TRUE (0013ms, 0798ms total)
T19CC 003:701 JLINK_Halt()  returns 0x00 (0000ms, 0798ms total)
T19CC 003:701 JLINK_IsHalted()  returns TRUE (0000ms, 0798ms total)
T19CC 003:701 JLINK_IsHalted()  returns TRUE (0000ms, 0798ms total)
T19CC 003:701 JLINK_IsHalted()  returns TRUE (0000ms, 0798ms total)
T19CC 003:701 JLINK_ReadReg(R15)  returns 0x08000424 (0001ms, 0798ms total)
T19CC 003:702 JLINK_ReadReg(XPSR)  returns 0x61000000 (0000ms, 0799ms total)
T19CC 003:702 JLINK_ClrBPEx(BPHandle = 0x00000001)  returns 0x00 (0000ms, 0799ms total)
T19CC 003:702 JLINK_ReadMemU32(0xE000ED30, 0x0001 Items, ...) -- CPU_ReadMem(4 bytes @ 0xE000ED30) -- Data:  03 00 00 00  returns 0x01 (0002ms, 0799ms total)
T19CC 003:704 JLINK_ReadMemU32(0xE0001028, 0x0001 Items, ...) -- CPU_ReadMem(4 bytes @ 0xE0001028) -- Data:  01 00 00 40  returns 0x01 (0002ms, 0801ms total)
T19CC 003:706 JLINK_ReadMemU32(0xE0001038, 0x0001 Items, ...) -- CPU_ReadMem(4 bytes @ 0xE0001038) -- Data:  01 00 00 40  returns 0x01 (0001ms, 0803ms total)
T19CC 003:707 JLINK_ReadMemU32(0xE0001048, 0x0001 Items, ...) -- CPU_ReadMem(4 bytes @ 0xE0001048) -- Data:  01 00 00 40  returns 0x01 (0001ms, 0804ms total)
T19CC 003:708 JLINK_ReadMemU32(0xE0001058, 0x0001 Items, ...) -- CPU_ReadMem(4 bytes @ 0xE0001058) -- Data:  01 00 00 40  returns 0x01 (0002ms, 0805ms total)
T1844 003:710 JLINK_ReadReg(R0)  returns 0x00000000 (0000ms, 0807ms total)
T1844 003:710 JLINK_ReadReg(R1)  returns 0x20000018 (0000ms, 0807ms total)
T1844 003:710 JLINK_ReadReg(R2)  returns 0x00000000 (0000ms, 0807ms total)
T1844 003:710 JLINK_ReadReg(R3)  returns 0x00000002 (0000ms, 0807ms total)
T1844 003:710 JLINK_ReadReg(R4)  returns 0x00000000 (0000ms, 0807ms total)
T1844 003:710 JLINK_ReadReg(R5)  returns 0x20000884 (0000ms, 0807ms total)
T1844 003:710 JLINK_ReadReg(R6)  returns 0x00000000 (0000ms, 0807ms total)
T1844 003:710 JLINK_ReadReg(R7)  returns 0x00000000 (0000ms, 0807ms total)
T1844 003:710 JLINK_ReadReg(R8)  returns 0x00000000 (0000ms, 0807ms total)
T1844 003:710 JLINK_ReadReg(R9)  returns 0x20000160 (0000ms, 0807ms total)
T1844 003:710 JLINK_ReadReg(R10)  returns 0x08005C20 (0000ms, 0807ms total)
T1844 003:710 JLINK_ReadReg(R11)  returns 0x00000000 (0000ms, 0807ms total)
T1844 003:710 JLINK_ReadReg(R12)  returns 0x00000030 (0000ms, 0807ms total)
T1844 003:710 JLINK_ReadReg(R13)  returns 0x20000EE8 (0000ms, 0807ms total)
T1844 003:710 JLINK_ReadReg(R14)  returns 0x08000417 (0000ms, 0807ms total)
T1844 003:710 JLINK_ReadReg(R15)  returns 0x08000424 (0000ms, 0807ms total)
T1844 003:710 JLINK_ReadReg(XPSR)  returns 0x61000000 (0000ms, 0807ms total)
T1844 003:710 JLINK_ReadReg(MSP)  returns 0x20000EE8 (0000ms, 0807ms total)
T1844 003:710 JLINK_ReadReg(PSP)  returns 0x20000800 (0000ms, 0807ms total)
T1844 003:710 JLINK_ReadReg(BASEPRI)  returns 0x00000000 (0000ms, 0807ms total)
T1844 003:710 JLINK_ReadReg(CONTROL)  returns 0x00000000 (0000ms, 0807ms total)
T1844 003:710 JLINK_ReadReg(FAULTMASK)  returns 0x00000000 (0000ms, 0807ms total)
T1844 003:710 JLINK_ReadReg(BASEPRI_MAX)  returns 0x00000000 (0000ms, 0807ms total)
T1844 005:379 JLINK_ReadMem (0x08000416, 0x0002 Bytes, ...) -- CPU_ReadMem(64 bytes @ 0x08000400) -- Updating C cache (64 bytes @ 0x08000400) -- Read from C cache (2 bytes @ 0x08000416) -- Data:  89 48  returns 0x00 (0004ms, 0807ms total)
T1844 005:383 JLINK_ReadMem (0x08000418, 0x003C Bytes, ...) -- CPU_ReadMem(64 bytes @ 0x08000440) -- Updating C cache (64 bytes @ 0x08000440) -- Read from C cache (60 bytes @ 0x08000418) -- Data:  00 88 8D 49 08 80 87 48 40 88 48 80 0A 20 FF F7 ...  returns 0x00 (0002ms, 0811ms total)
T1844 005:688 JLINK_ReadMem (0x20000018, 0x0002 Bytes, ...) -- CPU_ReadMem(64 bytes @ 0x20000000) -- Updating C cache (64 bytes @ 0x20000000) -- Read from C cache (2 bytes @ 0x20000018) -- Data:  00 00  returns 0x00 (0002ms, 0813ms total)
T1844 005:690 JLINK_ReadMem (0x2000001A, 0x0002 Bytes, ...) -- Read from C cache (2 bytes @ 0x2000001A) -- Data:  00 00  returns 0x00 (0000ms, 0815ms total)
T19CC 020:158 JLINK_Step() -- Read from C cache (2 bytes @ 0x08000424) -- Simulated  returns 0x00 (0002ms, 0815ms total)
T19CC 020:160 JLINK_ReadReg(R15)  returns 0x08000426 (0000ms, 0817ms total)
T19CC 020:160 JLINK_ReadReg(XPSR)  returns 0x21000000 (0000ms, 0817ms total)
T19CC 020:160 JLINK_SetBPEx(Addr = 0x08000424, Type = 0xFFFFFFF2)  returns 0x00000002 (0000ms, 0817ms total)
T19CC 020:160 JLINK_Go() -- CPU_WriteMem(4 bytes @ 0xE0002008) -- CPU_WriteMem(4 bytes @ 0xE000200C) -- CPU_WriteMem(4 bytes @ 0xE0002010) -- CPU_WriteMem(4 bytes @ 0xE0002014) -- CPU_WriteMem(4 bytes @ 0xE0002018) -- CPU_WriteMem(4 bytes @ 0xE000201C) (0010ms, 0817ms total)
T19CC 020:270 JLINK_IsHalted()  returns TRUE (0005ms, 0827ms total)
T19CC 020:275 JLINK_Halt()  returns 0x00 (0000ms, 0827ms total)
T19CC 020:275 JLINK_IsHalted()  returns TRUE (0000ms, 0827ms total)
T19CC 020:275 JLINK_IsHalted()  returns TRUE (0000ms, 0827ms total)
T19CC 020:275 JLINK_IsHalted()  returns TRUE (0000ms, 0827ms total)
T19CC 020:275 JLINK_ReadReg(R15)  returns 0x08000424 (0000ms, 0827ms total)
T19CC 020:275 JLINK_ReadReg(XPSR)  returns 0x61000000 (0000ms, 0827ms total)
T19CC 020:275 JLINK_ClrBPEx(BPHandle = 0x00000002)  returns 0x00 (0000ms, 0827ms total)
T19CC 020:275 JLINK_ReadMemU32(0xE000ED30, 0x0001 Items, ...) -- CPU_ReadMem(4 bytes @ 0xE000ED30) -- Data:  03 00 00 00  returns 0x01 (0001ms, 0827ms total)
T19CC 020:276 JLINK_ReadMemU32(0xE0001028, 0x0001 Items, ...) -- CPU_ReadMem(4 bytes @ 0xE0001028) -- Data:  01 00 00 40  returns 0x01 (0001ms, 0828ms total)
T19CC 020:277 JLINK_ReadMemU32(0xE0001038, 0x0001 Items, ...) -- CPU_ReadMem(4 bytes @ 0xE0001038) -- Data:  01 00 00 40  returns 0x01 (0001ms, 0829ms total)
T19CC 020:278 JLINK_ReadMemU32(0xE0001048, 0x0001 Items, ...) -- CPU_ReadMem(4 bytes @ 0xE0001048) -- Data:  01 00 00 40  returns 0x01 (0001ms, 0830ms total)
T19CC 020:279 JLINK_ReadMemU32(0xE0001058, 0x0001 Items, ...) -- CPU_ReadMem(4 bytes @ 0xE0001058) -- Data:  01 00 00 40  returns 0x01 (0001ms, 0831ms total)
T1844 020:281 JLINK_ReadReg(R0)  returns 0x00000001 (0000ms, 0832ms total)
T1844 020:281 JLINK_ReadReg(R1)  returns 0x20000018 (0000ms, 0832ms total)
T1844 020:281 JLINK_ReadReg(R2)  returns 0x00000000 (0000ms, 0832ms total)
T1844 020:281 JLINK_ReadReg(R3)  returns 0x00000002 (0000ms, 0832ms total)
T1844 020:281 JLINK_ReadReg(R4)  returns 0x00000000 (0000ms, 0832ms total)
T1844 020:281 JLINK_ReadReg(R5)  returns 0x20000884 (0000ms, 0832ms total)
T1844 020:281 JLINK_ReadReg(R6)  returns 0x00000000 (0000ms, 0832ms total)
T1844 020:281 JLINK_ReadReg(R7)  returns 0x00000000 (0000ms, 0832ms total)
T1844 020:281 JLINK_ReadReg(R8)  returns 0x00000000 (0000ms, 0832ms total)
T1844 020:281 JLINK_ReadReg(R9)  returns 0x20000160 (0000ms, 0832ms total)
T1844 020:281 JLINK_ReadReg(R10)  returns 0x08005C20 (0000ms, 0832ms total)
T1844 020:281 JLINK_ReadReg(R11)  returns 0x00000000 (0000ms, 0832ms total)
T1844 020:281 JLINK_ReadReg(R12)  returns 0x00000030 (0000ms, 0832ms total)
T1844 020:281 JLINK_ReadReg(R13)  returns 0x20000EE8 (0000ms, 0832ms total)
T1844 020:281 JLINK_ReadReg(R14)  returns 0x08000417 (0000ms, 0832ms total)
T1844 020:281 JLINK_ReadReg(R15)  returns 0x08000424 (0000ms, 0832ms total)
T1844 020:281 JLINK_ReadReg(XPSR)  returns 0x61000000 (0000ms, 0832ms total)
T1844 020:281 JLINK_ReadReg(MSP)  returns 0x20000EE8 (0000ms, 0832ms total)
T1844 020:281 JLINK_ReadReg(PSP)  returns 0x20000800 (0000ms, 0832ms total)
T1844 020:281 JLINK_ReadReg(BASEPRI)  returns 0x00000000 (0000ms, 0832ms total)
T1844 020:281 JLINK_ReadReg(CONTROL)  returns 0x00000000 (0000ms, 0832ms total)
T1844 020:281 JLINK_ReadReg(FAULTMASK)  returns 0x00000000 (0000ms, 0832ms total)
T1844 020:281 JLINK_ReadReg(BASEPRI_MAX)  returns 0x00000000 (0000ms, 0832ms total)
T19CC 021:126 JLINK_Step() -- CPU_ReadMem(64 bytes @ 0x08000400) -- Updating C cache (64 bytes @ 0x08000400) -- Read from C cache (2 bytes @ 0x08000424) -- Simulated  returns 0x00 (0004ms, 0832ms total)
T19CC 021:130 JLINK_ReadReg(R15)  returns 0x08000426 (0000ms, 0836ms total)
T19CC 021:130 JLINK_ReadReg(XPSR)  returns 0x21000000 (0000ms, 0836ms total)
T19CC 021:130 JLINK_SetBPEx(Addr = 0x08000424, Type = 0xFFFFFFF2)  returns 0x00000003 (0000ms, 0836ms total)
T19CC 021:130 JLINK_Go() -- CPU_WriteMem(4 bytes @ 0xE0002008) -- CPU_WriteMem(4 bytes @ 0xE000200C) -- CPU_WriteMem(4 bytes @ 0xE0002010) -- CPU_WriteMem(4 bytes @ 0xE0002014) -- CPU_WriteMem(4 bytes @ 0xE0002018) -- CPU_WriteMem(4 bytes @ 0xE000201C) (0011ms, 0836ms total)
T19CC 021:241 JLINK_IsHalted()  returns TRUE (0005ms, 0847ms total)
T19CC 021:246 JLINK_Halt()  returns 0x00 (0000ms, 0847ms total)
T19CC 021:246 JLINK_IsHalted()  returns TRUE (0000ms, 0847ms total)
T19CC 021:246 JLINK_IsHalted()  returns TRUE (0000ms, 0847ms total)
T19CC 021:246 JLINK_IsHalted()  returns TRUE (0000ms, 0847ms total)
T19CC 021:246 JLINK_ReadReg(R15)  returns 0x08000424 (0000ms, 0847ms total)
T19CC 021:246 JLINK_ReadReg(XPSR)  returns 0x61000000 (0000ms, 0847ms total)
T19CC 021:246 JLINK_ClrBPEx(BPHandle = 0x00000003)  returns 0x00 (0000ms, 0847ms total)
T19CC 021:246 JLINK_ReadMemU32(0xE000ED30, 0x0001 Items, ...) -- CPU_ReadMem(4 bytes @ 0xE000ED30) -- Data:  03 00 00 00  returns 0x01 (0002ms, 0847ms total)
T19CC 021:248 JLINK_ReadMemU32(0xE0001028, 0x0001 Items, ...) -- CPU_ReadMem(4 bytes @ 0xE0001028) -- Data:  01 00 00 40  returns 0x01 (0001ms, 0849ms total)
T19CC 021:249 JLINK_ReadMemU32(0xE0001038, 0x0001 Items, ...) -- CPU_ReadMem(4 bytes @ 0xE0001038) -- Data:  01 00 00 40  returns 0x01 (0001ms, 0850ms total)
T19CC 021:250 JLINK_ReadMemU32(0xE0001048, 0x0001 Items, ...) -- CPU_ReadMem(4 bytes @ 0xE0001048) -- Data:  01 00 00 40  returns 0x01 (0001ms, 0851ms total)
T19CC 021:251 JLINK_ReadMemU32(0xE0001058, 0x0001 Items, ...) -- CPU_ReadMem(4 bytes @ 0xE0001058) -- Data:  01 00 00 40  returns 0x01 (0001ms, 0852ms total)
T1844 021:252 JLINK_ReadReg(R0)  returns 0x00000000 (0000ms, 0853ms total)
T1844 021:252 JLINK_ReadReg(R1)  returns 0x20000018 (0000ms, 0853ms total)
T1844 021:253 JLINK_ReadReg(R2)  returns 0x00000000 (0000ms, 0853ms total)
T1844 021:253 JLINK_ReadReg(R3)  returns 0x00000002 (0000ms, 0853ms total)
T1844 021:253 JLINK_ReadReg(R4)  returns 0x00000000 (0000ms, 0853ms total)
T1844 021:253 JLINK_ReadReg(R5)  returns 0x20000884 (0000ms, 0853ms total)
T1844 021:253 JLINK_ReadReg(R6)  returns 0x00000000 (0000ms, 0853ms total)
T1844 021:253 JLINK_ReadReg(R7)  returns 0x00000000 (0000ms, 0853ms total)
T1844 021:253 JLINK_ReadReg(R8)  returns 0x00000000 (0000ms, 0853ms total)
T1844 021:253 JLINK_ReadReg(R9)  returns 0x20000160 (0000ms, 0853ms total)
T1844 021:253 JLINK_ReadReg(R10)  returns 0x08005C20 (0000ms, 0853ms total)
T1844 021:253 JLINK_ReadReg(R11)  returns 0x00000000 (0000ms, 0853ms total)
T1844 021:253 JLINK_ReadReg(R12)  returns 0x00000030 (0000ms, 0853ms total)
T1844 021:253 JLINK_ReadReg(R13)  returns 0x20000EE8 (0000ms, 0853ms total)
T1844 021:253 JLINK_ReadReg(R14)  returns 0x08000417 (0000ms, 0853ms total)
T1844 021:253 JLINK_ReadReg(R15)  returns 0x08000424 (0000ms, 0853ms total)
T1844 021:253 JLINK_ReadReg(XPSR)  returns 0x61000000 (0000ms, 0853ms total)
T1844 021:253 JLINK_ReadReg(MSP)  returns 0x20000EE8 (0000ms, 0853ms total)
T1844 021:253 JLINK_ReadReg(PSP)  returns 0x20000800 (0000ms, 0853ms total)
T1844 021:253 JLINK_ReadReg(BASEPRI)  returns 0x00000000 (0000ms, 0853ms total)
T1844 021:253 JLINK_ReadReg(CONTROL)  returns 0x00000000 (0000ms, 0853ms total)
T1844 021:253 JLINK_ReadReg(FAULTMASK)  returns 0x00000000 (0000ms, 0853ms total)
T1844 021:253 JLINK_ReadReg(BASEPRI_MAX)  returns 0x00000000 (0000ms, 0853ms total)
T19CC 022:024 JLINK_Step() -- CPU_ReadMem(64 bytes @ 0x08000400) -- Updating C cache (64 bytes @ 0x08000400) -- Read from C cache (2 bytes @ 0x08000424) -- Simulated  returns 0x00 (0003ms, 0853ms total)
T19CC 022:027 JLINK_ReadReg(R15)  returns 0x08000426 (0000ms, 0856ms total)
T19CC 022:027 JLINK_ReadReg(XPSR)  returns 0x21000000 (0000ms, 0856ms total)
T19CC 022:027 JLINK_SetBPEx(Addr = 0x08000424, Type = 0xFFFFFFF2)  returns 0x00000004 (0000ms, 0856ms total)
T19CC 022:027 JLINK_Go() -- CPU_WriteMem(4 bytes @ 0xE0002008) -- CPU_WriteMem(4 bytes @ 0xE000200C) -- CPU_WriteMem(4 bytes @ 0xE0002010) -- CPU_WriteMem(4 bytes @ 0xE0002014) -- CPU_WriteMem(4 bytes @ 0xE0002018) -- CPU_WriteMem(4 bytes @ 0xE000201C) (0011ms, 0856ms total)
T19CC 022:138 JLINK_IsHalted()  returns TRUE (0004ms, 0867ms total)
T19CC 022:142 JLINK_Halt()  returns 0x00 (0001ms, 0867ms total)
T19CC 022:143 JLINK_IsHalted()  returns TRUE (0000ms, 0868ms total)
T19CC 022:143 JLINK_IsHalted()  returns TRUE (0000ms, 0868ms total)
T19CC 022:143 JLINK_IsHalted()  returns TRUE (0000ms, 0868ms total)
T19CC 022:143 JLINK_ReadReg(R15)  returns 0x08000424 (0000ms, 0868ms total)
T19CC 022:143 JLINK_ReadReg(XPSR)  returns 0x61000000 (0000ms, 0868ms total)
T19CC 022:143 JLINK_ClrBPEx(BPHandle = 0x00000004)  returns 0x00 (0000ms, 0868ms total)
T19CC 022:143 JLINK_ReadMemU32(0xE000ED30, 0x0001 Items, ...) -- CPU_ReadMem(4 bytes @ 0xE000ED30) -- Data:  03 00 00 00  returns 0x01 (0001ms, 0868ms total)
T19CC 022:144 JLINK_ReadMemU32(0xE0001028, 0x0001 Items, ...) -- CPU_ReadMem(4 bytes @ 0xE0001028) -- Data:  01 00 00 40  returns 0x01 (0002ms, 0869ms total)
T19CC 022:146 JLINK_ReadMemU32(0xE0001038, 0x0001 Items, ...) -- CPU_ReadMem(4 bytes @ 0xE0001038) -- Data:  01 00 00 40  returns 0x01 (0001ms, 0871ms total)
T19CC 022:147 JLINK_ReadMemU32(0xE0001048, 0x0001 Items, ...) -- CPU_ReadMem(4 bytes @ 0xE0001048) -- Data:  01 00 00 40  returns 0x01 (0001ms, 0872ms total)
T19CC 022:148 JLINK_ReadMemU32(0xE0001058, 0x0001 Items, ...) -- CPU_ReadMem(4 bytes @ 0xE0001058) -- Data:  01 00 00 40  returns 0x01 (0001ms, 0873ms total)
T1844 022:150 JLINK_ReadReg(R0)  returns 0x00000001 (0000ms, 0874ms total)
T1844 022:150 JLINK_ReadReg(R1)  returns 0x20000018 (0000ms, 0874ms total)
T1844 022:150 JLINK_ReadReg(R2)  returns 0x00000000 (0000ms, 0874ms total)
T1844 022:150 JLINK_ReadReg(R3)  returns 0x00000002 (0000ms, 0874ms total)
T1844 022:150 JLINK_ReadReg(R4)  returns 0x00000000 (0000ms, 0874ms total)
T1844 022:150 JLINK_ReadReg(R5)  returns 0x20000884 (0000ms, 0874ms total)
T1844 022:150 JLINK_ReadReg(R6)  returns 0x00000000 (0000ms, 0874ms total)
T1844 022:150 JLINK_ReadReg(R7)  returns 0x00000000 (0000ms, 0874ms total)
T1844 022:150 JLINK_ReadReg(R8)  returns 0x00000000 (0000ms, 0874ms total)
T1844 022:150 JLINK_ReadReg(R9)  returns 0x20000160 (0000ms, 0874ms total)
T1844 022:150 JLINK_ReadReg(R10)  returns 0x08005C20 (0000ms, 0874ms total)
T1844 022:150 JLINK_ReadReg(R11)  returns 0x00000000 (0000ms, 0874ms total)
T1844 022:150 JLINK_ReadReg(R12)  returns 0x00000030 (0000ms, 0874ms total)
T1844 022:150 JLINK_ReadReg(R13)  returns 0x20000EE8 (0000ms, 0874ms total)
T1844 022:150 JLINK_ReadReg(R14)  returns 0x08000417 (0000ms, 0874ms total)
T1844 022:150 JLINK_ReadReg(R15)  returns 0x08000424 (0000ms, 0874ms total)
T1844 022:150 JLINK_ReadReg(XPSR)  returns 0x61000000 (0000ms, 0874ms total)
T1844 022:150 JLINK_ReadReg(MSP)  returns 0x20000EE8 (0000ms, 0874ms total)
T1844 022:150 JLINK_ReadReg(PSP)  returns 0x20000800 (0000ms, 0874ms total)
T1844 022:150 JLINK_ReadReg(BASEPRI)  returns 0x00000000 (0000ms, 0874ms total)
T1844 022:150 JLINK_ReadReg(CONTROL)  returns 0x00000000 (0000ms, 0874ms total)
T1844 022:150 JLINK_ReadReg(FAULTMASK)  returns 0x00000000 (0000ms, 0874ms total)
T1844 022:150 JLINK_ReadReg(BASEPRI_MAX)  returns 0x00000000 (0000ms, 0874ms total)
T19CC 022:949 JLINK_Step() -- CPU_ReadMem(64 bytes @ 0x08000400) -- Updating C cache (64 bytes @ 0x08000400) -- Read from C cache (2 bytes @ 0x08000424) -- Simulated  returns 0x00 (0006ms, 0874ms total)
T19CC 022:955 JLINK_ReadReg(R15)  returns 0x08000426 (0000ms, 0880ms total)
T19CC 022:955 JLINK_ReadReg(XPSR)  returns 0x21000000 (0000ms, 0880ms total)
T19CC 022:955 JLINK_SetBPEx(Addr = 0x08000424, Type = 0xFFFFFFF2)  returns 0x00000005 (0000ms, 0880ms total)
T19CC 022:955 JLINK_Go() -- CPU_WriteMem(4 bytes @ 0xE0002008) -- CPU_WriteMem(4 bytes @ 0xE000200C) -- CPU_WriteMem(4 bytes @ 0xE0002010) -- CPU_WriteMem(4 bytes @ 0xE0002014) -- CPU_WriteMem(4 bytes @ 0xE0002018) -- CPU_WriteMem(4 bytes @ 0xE000201C) (0016ms, 0880ms total)
T19CC 023:071 JLINK_IsHalted()  returns TRUE (0018ms, 0896ms total)
T19CC 023:089 JLINK_Halt()  returns 0x00 (0000ms, 0896ms total)
T19CC 023:089 JLINK_IsHalted()  returns TRUE (0000ms, 0896ms total)
T19CC 023:089 JLINK_IsHalted()  returns TRUE (0000ms, 0896ms total)
T19CC 023:089 JLINK_IsHalted()  returns TRUE (0000ms, 0896ms total)
T19CC 023:089 JLINK_ReadReg(R15)  returns 0x08000424 (0000ms, 0896ms total)
T19CC 023:090 JLINK_ReadReg(XPSR)  returns 0x61000000 (0000ms, 0897ms total)
T19CC 023:090 JLINK_ClrBPEx(BPHandle = 0x00000005)  returns 0x00 (0000ms, 0897ms total)
T19CC 023:090 JLINK_ReadMemU32(0xE000ED30, 0x0001 Items, ...) -- CPU_ReadMem(4 bytes @ 0xE000ED30) -- Data:  03 00 00 00  returns 0x01 (0001ms, 0897ms total)
T19CC 023:091 JLINK_ReadMemU32(0xE0001028, 0x0001 Items, ...) -- CPU_ReadMem(4 bytes @ 0xE0001028) -- Data:  01 00 00 40  returns 0x01 (0000ms, 0898ms total)
T19CC 023:091 JLINK_ReadMemU32(0xE0001038, 0x0001 Items, ...) -- CPU_ReadMem(4 bytes @ 0xE0001038) -- Data:  01 00 00 40  returns 0x01 (0002ms, 0898ms total)
T19CC 023:093 JLINK_ReadMemU32(0xE0001048, 0x0001 Items, ...) -- CPU_ReadMem(4 bytes @ 0xE0001048) -- Data:  01 00 00 40  returns 0x01 (0001ms, 0900ms total)
T19CC 023:094 JLINK_ReadMemU32(0xE0001058, 0x0001 Items, ...) -- CPU_ReadMem(4 bytes @ 0xE0001058) -- Data:  01 00 00 40  returns 0x01 (0001ms, 0901ms total)
T1844 023:096 JLINK_ReadReg(R0)  returns 0x00000000 (0000ms, 0902ms total)
T1844 023:096 JLINK_ReadReg(R1)  returns 0x20000018 (0000ms, 0902ms total)
T1844 023:096 JLINK_ReadReg(R2)  returns 0x00000000 (0000ms, 0902ms total)
T1844 023:096 JLINK_ReadReg(R3)  returns 0x00000002 (0000ms, 0902ms total)
T1844 023:096 JLINK_ReadReg(R4)  returns 0x00000000 (0000ms, 0902ms total)
T1844 023:096 JLINK_ReadReg(R5)  returns 0x20000884 (0000ms, 0902ms total)
T1844 023:096 JLINK_ReadReg(R6)  returns 0x00000000 (0000ms, 0902ms total)
T1844 023:096 JLINK_ReadReg(R7)  returns 0x00000000 (0000ms, 0902ms total)
T1844 023:096 JLINK_ReadReg(R8)  returns 0x00000000 (0000ms, 0902ms total)
T1844 023:096 JLINK_ReadReg(R9)  returns 0x20000160 (0000ms, 0902ms total)
T1844 023:096 JLINK_ReadReg(R10)  returns 0x08005C20 (0000ms, 0902ms total)
T1844 023:096 JLINK_ReadReg(R11)  returns 0x00000000 (0000ms, 0902ms total)
T1844 023:096 JLINK_ReadReg(R12)  returns 0x00000030 (0000ms, 0902ms total)
T1844 023:096 JLINK_ReadReg(R13)  returns 0x20000EE8 (0000ms, 0902ms total)
T1844 023:096 JLINK_ReadReg(R14)  returns 0x08000417 (0000ms, 0902ms total)
T1844 023:096 JLINK_ReadReg(R15)  returns 0x08000424 (0000ms, 0902ms total)
T1844 023:096 JLINK_ReadReg(XPSR)  returns 0x61000000 (0000ms, 0902ms total)
T1844 023:096 JLINK_ReadReg(MSP)  returns 0x20000EE8 (0000ms, 0902ms total)
T1844 023:096 JLINK_ReadReg(PSP)  returns 0x20000800 (0000ms, 0902ms total)
T1844 023:096 JLINK_ReadReg(BASEPRI)  returns 0x00000000 (0000ms, 0902ms total)
T1844 023:096 JLINK_ReadReg(CONTROL)  returns 0x00000000 (0000ms, 0902ms total)
T1844 023:096 JLINK_ReadReg(FAULTMASK)  returns 0x00000000 (0000ms, 0902ms total)
T1844 023:096 JLINK_ReadReg(BASEPRI_MAX)  returns 0x00000000 (0000ms, 0902ms total)
T19CC 023:699 JLINK_Step() -- CPU_ReadMem(64 bytes @ 0x08000400) -- Updating C cache (64 bytes @ 0x08000400) -- Read from C cache (2 bytes @ 0x08000424) -- Simulated  returns 0x00 (0004ms, 0902ms total)
T19CC 023:703 JLINK_ReadReg(R15)  returns 0x08000426 (0000ms, 0906ms total)
T19CC 023:704 JLINK_ReadReg(XPSR)  returns 0x21000000 (0000ms, 0906ms total)
T19CC 023:704 JLINK_SetBPEx(Addr = 0x08000424, Type = 0xFFFFFFF2)  returns 0x00000006 (0000ms, 0906ms total)
T19CC 023:704 JLINK_Go() -- CPU_WriteMem(4 bytes @ 0xE0002008) -- CPU_WriteMem(4 bytes @ 0xE000200C) -- CPU_WriteMem(4 bytes @ 0xE0002010) -- CPU_WriteMem(4 bytes @ 0xE0002014) -- CPU_WriteMem(4 bytes @ 0xE0002018) -- CPU_WriteMem(4 bytes @ 0xE000201C) (0017ms, 0906ms total)
T19CC 023:821 JLINK_IsHalted()  returns TRUE (0008ms, 0923ms total)
T19CC 023:829 JLINK_Halt()  returns 0x00 (0000ms, 0923ms total)
T19CC 023:829 JLINK_IsHalted()  returns TRUE (0000ms, 0923ms total)
T19CC 023:829 JLINK_IsHalted()  returns TRUE (0000ms, 0923ms total)
T19CC 023:829 JLINK_IsHalted()  returns TRUE (0001ms, 0923ms total)
T19CC 023:830 JLINK_ReadReg(R15)  returns 0x08000424 (0000ms, 0923ms total)
T19CC 023:830 JLINK_ReadReg(XPSR)  returns 0x61000000 (0000ms, 0923ms total)
T19CC 023:830 JLINK_ClrBPEx(BPHandle = 0x00000006)  returns 0x00 (0000ms, 0923ms total)
T19CC 023:830 JLINK_ReadMemU32(0xE000ED30, 0x0001 Items, ...) -- CPU_ReadMem(4 bytes @ 0xE000ED30) -- Data:  03 00 00 00  returns 0x01 (0001ms, 0923ms total)
T19CC 023:831 JLINK_ReadMemU32(0xE0001028, 0x0001 Items, ...) -- CPU_ReadMem(4 bytes @ 0xE0001028) -- Data:  01 00 00 40  returns 0x01 (0001ms, 0924ms total)
T19CC 023:832 JLINK_ReadMemU32(0xE0001038, 0x0001 Items, ...) -- CPU_ReadMem(4 bytes @ 0xE0001038) -- Data:  01 00 00 40  returns 0x01 (0001ms, 0925ms total)
T19CC 023:833 JLINK_ReadMemU32(0xE0001048, 0x0001 Items, ...) -- CPU_ReadMem(4 bytes @ 0xE0001048) -- Data:  01 00 00 40  returns 0x01 (0001ms, 0926ms total)
T19CC 023:834 JLINK_ReadMemU32(0xE0001058, 0x0001 Items, ...) -- CPU_ReadMem(4 bytes @ 0xE0001058) -- Data:  01 00 00 40  returns 0x01 (0002ms, 0927ms total)
T1844 023:836 JLINK_ReadReg(R0)  returns 0x00000001 (0000ms, 0929ms total)
T1844 023:836 JLINK_ReadReg(R1)  returns 0x20000018 (0000ms, 0929ms total)
T1844 023:836 JLINK_ReadReg(R2)  returns 0x00000000 (0000ms, 0929ms total)
T1844 023:836 JLINK_ReadReg(R3)  returns 0x00000002 (0000ms, 0929ms total)
T1844 023:836 JLINK_ReadReg(R4)  returns 0x00000000 (0000ms, 0929ms total)
T1844 023:836 JLINK_ReadReg(R5)  returns 0x20000884 (0000ms, 0929ms total)
T1844 023:836 JLINK_ReadReg(R6)  returns 0x00000000 (0000ms, 0929ms total)
T1844 023:836 JLINK_ReadReg(R7)  returns 0x00000000 (0000ms, 0929ms total)
T1844 023:836 JLINK_ReadReg(R8)  returns 0x00000000 (0000ms, 0929ms total)
T1844 023:836 JLINK_ReadReg(R9)  returns 0x20000160 (0000ms, 0929ms total)
T1844 023:836 JLINK_ReadReg(R10)  returns 0x08005C20 (0000ms, 0929ms total)
T1844 023:836 JLINK_ReadReg(R11)  returns 0x00000000 (0000ms, 0929ms total)
T1844 023:836 JLINK_ReadReg(R12)  returns 0x00000030 (0000ms, 0929ms total)
T1844 023:836 JLINK_ReadReg(R13)  returns 0x20000EE8 (0000ms, 0929ms total)
T1844 023:836 JLINK_ReadReg(R14)  returns 0x08000417 (0000ms, 0929ms total)
T1844 023:836 JLINK_ReadReg(R15)  returns 0x08000424 (0000ms, 0929ms total)
T1844 023:836 JLINK_ReadReg(XPSR)  returns 0x61000000 (0000ms, 0929ms total)
T1844 023:836 JLINK_ReadReg(MSP)  returns 0x20000EE8 (0000ms, 0929ms total)
T1844 023:836 JLINK_ReadReg(PSP)  returns 0x20000800 (0000ms, 0929ms total)
T1844 023:836 JLINK_ReadReg(BASEPRI)  returns 0x00000000 (0000ms, 0929ms total)
T1844 023:836 JLINK_ReadReg(CONTROL)  returns 0x00000000 (0000ms, 0929ms total)
T1844 023:836 JLINK_ReadReg(FAULTMASK)  returns 0x00000000 (0000ms, 0929ms total)
T1844 023:836 JLINK_ReadReg(BASEPRI_MAX)  returns 0x00000000 (0000ms, 0929ms total)
T19CC 024:391 JLINK_Step() -- CPU_ReadMem(64 bytes @ 0x08000400) -- Updating C cache (64 bytes @ 0x08000400) -- Read from C cache (2 bytes @ 0x08000424) -- Simulated  returns 0x00 (0008ms, 0929ms total)
T19CC 024:399 JLINK_ReadReg(R15)  returns 0x08000426 (0000ms, 0937ms total)
T19CC 024:399 JLINK_ReadReg(XPSR)  returns 0x21000000 (0000ms, 0937ms total)
T19CC 024:399 JLINK_SetBPEx(Addr = 0x08000424, Type = 0xFFFFFFF2)  returns 0x00000007 (0000ms, 0937ms total)
T19CC 024:399 JLINK_Go() -- CPU_WriteMem(4 bytes @ 0xE0002008) -- CPU_WriteMem(4 bytes @ 0xE000200C) -- CPU_WriteMem(4 bytes @ 0xE0002010) -- CPU_WriteMem(4 bytes @ 0xE0002014) -- CPU_WriteMem(4 bytes @ 0xE0002018) -- CPU_WriteMem(4 bytes @ 0xE000201C) (0014ms, 0937ms total)
T19CC 024:513 JLINK_IsHalted()  returns TRUE (0005ms, 0951ms total)
T19CC 024:518 JLINK_Halt()  returns 0x00 (0000ms, 0951ms total)
T19CC 024:518 JLINK_IsHalted()  returns TRUE (0000ms, 0951ms total)
T19CC 024:518 JLINK_IsHalted()  returns TRUE (0000ms, 0951ms total)
T19CC 024:518 JLINK_IsHalted()  returns TRUE (0000ms, 0951ms total)
T19CC 024:518 JLINK_ReadReg(R15)  returns 0x08000424 (0000ms, 0951ms total)
T19CC 024:518 JLINK_ReadReg(XPSR)  returns 0x61000000 (0000ms, 0951ms total)
T19CC 024:518 JLINK_ClrBPEx(BPHandle = 0x00000007)  returns 0x00 (0000ms, 0951ms total)
T19CC 024:518 JLINK_ReadMemU32(0xE000ED30, 0x0001 Items, ...) -- CPU_ReadMem(4 bytes @ 0xE000ED30) -- Data:  03 00 00 00  returns 0x01 (0002ms, 0951ms total)
T19CC 024:520 JLINK_ReadMemU32(0xE0001028, 0x0001 Items, ...) -- CPU_ReadMem(4 bytes @ 0xE0001028) -- Data:  01 00 00 40  returns 0x01 (0002ms, 0953ms total)
T19CC 024:522 JLINK_ReadMemU32(0xE0001038, 0x0001 Items, ...) -- CPU_ReadMem(4 bytes @ 0xE0001038) -- Data:  01 00 00 40  returns 0x01 (0001ms, 0955ms total)
T19CC 024:523 JLINK_ReadMemU32(0xE0001048, 0x0001 Items, ...) -- CPU_ReadMem(4 bytes @ 0xE0001048) -- Data:  01 00 00 40  returns 0x01 (0002ms, 0956ms total)
T19CC 024:525 JLINK_ReadMemU32(0xE0001058, 0x0001 Items, ...) -- CPU_ReadMem(4 bytes @ 0xE0001058) -- Data:  01 00 00 40  returns 0x01 (0002ms, 0958ms total)
T1844 024:527 JLINK_ReadReg(R0)  returns 0x00000001 (0000ms, 0960ms total)
T1844 024:527 JLINK_ReadReg(R1)  returns 0x20000018 (0000ms, 0960ms total)
T1844 024:527 JLINK_ReadReg(R2)  returns 0x00000000 (0000ms, 0960ms total)
T1844 024:527 JLINK_ReadReg(R3)  returns 0x00000002 (0000ms, 0960ms total)
T1844 024:527 JLINK_ReadReg(R4)  returns 0x00000000 (0000ms, 0960ms total)
T1844 024:527 JLINK_ReadReg(R5)  returns 0x20000884 (0000ms, 0960ms total)
T1844 024:527 JLINK_ReadReg(R6)  returns 0x00000000 (0000ms, 0960ms total)
T1844 024:527 JLINK_ReadReg(R7)  returns 0x00000000 (0000ms, 0960ms total)
T1844 024:527 JLINK_ReadReg(R8)  returns 0x00000000 (0000ms, 0960ms total)
T1844 024:527 JLINK_ReadReg(R9)  returns 0x20000160 (0000ms, 0960ms total)
T1844 024:527 JLINK_ReadReg(R10)  returns 0x08005C20 (0000ms, 0960ms total)
T1844 024:527 JLINK_ReadReg(R11)  returns 0x00000000 (0000ms, 0960ms total)
T1844 024:527 JLINK_ReadReg(R12)  returns 0x00000030 (0000ms, 0960ms total)
T1844 024:527 JLINK_ReadReg(R13)  returns 0x20000EE8 (0000ms, 0960ms total)
T1844 024:527 JLINK_ReadReg(R14)  returns 0x08000417 (0000ms, 0960ms total)
T1844 024:527 JLINK_ReadReg(R15)  returns 0x08000424 (0000ms, 0960ms total)
T1844 024:528 JLINK_ReadReg(XPSR)  returns 0x61000000 (0000ms, 0961ms total)
T1844 024:528 JLINK_ReadReg(MSP)  returns 0x20000EE8 (0000ms, 0961ms total)
T1844 024:528 JLINK_ReadReg(PSP)  returns 0x20000800 (0000ms, 0961ms total)
T1844 024:528 JLINK_ReadReg(BASEPRI)  returns 0x00000000 (0000ms, 0961ms total)
T1844 024:528 JLINK_ReadReg(CONTROL)  returns 0x00000000 (0000ms, 0961ms total)
T1844 024:528 JLINK_ReadReg(FAULTMASK)  returns 0x00000000 (0000ms, 0961ms total)
T1844 024:528 JLINK_ReadReg(BASEPRI_MAX)  returns 0x00000000 (0000ms, 0961ms total)
T1844 027:049 JLINK_ReadMem (0x20000018, 0x0002 Bytes, ...) -- CPU_ReadMem(64 bytes @ 0x20000000) -- Updating C cache (64 bytes @ 0x20000000) -- Read from C cache (2 bytes @ 0x20000018) -- Data:  FA 0A  returns 0x00 (0004ms, 0961ms total)
T1844 027:053 JLINK_ReadMem (0x2000001A, 0x0002 Bytes, ...) -- Read from C cache (2 bytes @ 0x2000001A) -- Data:  01 00  returns 0x00 (0000ms, 0965ms total)
T1844 028:056 JLINK_ReadMem (0x08000416, 0x0002 Bytes, ...) -- CPU_ReadMem(64 bytes @ 0x08000400) -- Updating C cache (64 bytes @ 0x08000400) -- Read from C cache (2 bytes @ 0x08000416) -- Data:  89 48  returns 0x00 (0003ms, 0965ms total)
T1844 028:059 JLINK_ReadMem (0x08000418, 0x003C Bytes, ...) -- CPU_ReadMem(64 bytes @ 0x08000440) -- Updating C cache (64 bytes @ 0x08000440) -- Read from C cache (60 bytes @ 0x08000418) -- Data:  00 88 8D 49 08 80 87 48 40 88 48 80 0A 20 FF F7 ...  returns 0x00 (0002ms, 0968ms total)
T19CC 029:389 JLINK_Step() -- Read from C cache (2 bytes @ 0x08000424) -- Simulated  returns 0x00 (0014ms, 0970ms total)
T19CC 029:403 JLINK_ReadReg(R15)  returns 0x08000426 (0000ms, 0984ms total)
T19CC 029:403 JLINK_ReadReg(XPSR)  returns 0x21000000 (0000ms, 0984ms total)
T19CC 029:403 JLINK_SetBPEx(Addr = 0x08000424, Type = 0xFFFFFFF2)  returns 0x00000008 (0000ms, 0984ms total)
T19CC 029:403 JLINK_Go() -- CPU_WriteMem(4 bytes @ 0xE0002008) -- CPU_WriteMem(4 bytes @ 0xE000200C) -- CPU_WriteMem(4 bytes @ 0xE0002010) -- CPU_WriteMem(4 bytes @ 0xE0002014) -- CPU_WriteMem(4 bytes @ 0xE0002018) -- CPU_WriteMem(4 bytes @ 0xE000201C) (0020ms, 0984ms total)
T19CC 029:523 JLINK_IsHalted()  returns TRUE (0004ms, 1004ms total)
T19CC 029:527 JLINK_Halt()  returns 0x00 (0000ms, 1004ms total)
T19CC 029:527 JLINK_IsHalted()  returns TRUE (0000ms, 1004ms total)
T19CC 029:527 JLINK_IsHalted()  returns TRUE (0000ms, 1004ms total)
T19CC 029:527 JLINK_IsHalted()  returns TRUE (0000ms, 1004ms total)
T19CC 029:527 JLINK_ReadReg(R15)  returns 0x08000424 (0000ms, 1004ms total)
T19CC 029:527 JLINK_ReadReg(XPSR)  returns 0x61000000 (0000ms, 1004ms total)
T19CC 029:527 JLINK_ClrBPEx(BPHandle = 0x00000008)  returns 0x00 (0000ms, 1004ms total)
T19CC 029:527 JLINK_ReadMemU32(0xE000ED30, 0x0001 Items, ...) -- CPU_ReadMem(4 bytes @ 0xE000ED30) -- Data:  03 00 00 00  returns 0x01 (0001ms, 1004ms total)
T19CC 029:528 JLINK_ReadMemU32(0xE0001028, 0x0001 Items, ...) -- CPU_ReadMem(4 bytes @ 0xE0001028) -- Data:  01 00 00 40  returns 0x01 (0001ms, 1005ms total)
T19CC 029:529 JLINK_ReadMemU32(0xE0001038, 0x0001 Items, ...) -- CPU_ReadMem(4 bytes @ 0xE0001038) -- Data:  01 00 00 40  returns 0x01 (0001ms, 1006ms total)
T19CC 029:530 JLINK_ReadMemU32(0xE0001048, 0x0001 Items, ...) -- CPU_ReadMem(4 bytes @ 0xE0001048) -- Data:  01 00 00 40  returns 0x01 (0001ms, 1007ms total)
T19CC 029:531 JLINK_ReadMemU32(0xE0001058, 0x0001 Items, ...) -- CPU_ReadMem(4 bytes @ 0xE0001058) -- Data:  01 00 00 40  returns 0x01 (0001ms, 1008ms total)
T1844 029:532 JLINK_ReadReg(R0)  returns 0x00000001 (0000ms, 1009ms total)
T1844 029:532 JLINK_ReadReg(R1)  returns 0x20000018 (0000ms, 1009ms total)
T1844 029:532 JLINK_ReadReg(R2)  returns 0x00000000 (0000ms, 1009ms total)
T1844 029:532 JLINK_ReadReg(R3)  returns 0x00000002 (0000ms, 1009ms total)
T1844 029:532 JLINK_ReadReg(R4)  returns 0x00000000 (0000ms, 1009ms total)
T1844 029:532 JLINK_ReadReg(R5)  returns 0x20000884 (0000ms, 1009ms total)
T1844 029:532 JLINK_ReadReg(R6)  returns 0x00000000 (0000ms, 1009ms total)
T1844 029:532 JLINK_ReadReg(R7)  returns 0x00000000 (0000ms, 1009ms total)
T1844 029:532 JLINK_ReadReg(R8)  returns 0x00000000 (0000ms, 1009ms total)
T1844 029:532 JLINK_ReadReg(R9)  returns 0x20000160 (0001ms, 1009ms total)
T1844 029:533 JLINK_ReadReg(R10)  returns 0x08005C20 (0000ms, 1010ms total)
T1844 029:533 JLINK_ReadReg(R11)  returns 0x00000000 (0000ms, 1010ms total)
T1844 029:533 JLINK_ReadReg(R12)  returns 0x00000030 (0000ms, 1010ms total)
T1844 029:533 JLINK_ReadReg(R13)  returns 0x20000EE8 (0000ms, 1010ms total)
T1844 029:533 JLINK_ReadReg(R14)  returns 0x08000417 (0000ms, 1010ms total)
T1844 029:533 JLINK_ReadReg(R15)  returns 0x08000424 (0000ms, 1010ms total)
T1844 029:533 JLINK_ReadReg(XPSR)  returns 0x61000000 (0000ms, 1010ms total)
T1844 029:533 JLINK_ReadReg(MSP)  returns 0x20000EE8 (0000ms, 1010ms total)
T1844 029:533 JLINK_ReadReg(PSP)  returns 0x20000800 (0000ms, 1010ms total)
T1844 029:533 JLINK_ReadReg(BASEPRI)  returns 0x00000000 (0000ms, 1010ms total)
T1844 029:533 JLINK_ReadReg(CONTROL)  returns 0x00000000 (0000ms, 1010ms total)
T1844 029:533 JLINK_ReadReg(FAULTMASK)  returns 0x00000000 (0000ms, 1010ms total)
T1844 029:533 JLINK_ReadReg(BASEPRI_MAX)  returns 0x00000000 (0000ms, 1010ms total)
T1844 029:533 JLINK_ReadMem (0x20000018, 0x0002 Bytes, ...) -- CPU_ReadMem(64 bytes @ 0x20000000) -- Updating C cache (64 bytes @ 0x20000000) -- Read from C cache (2 bytes @ 0x20000018) -- Data:  BF 07  returns 0x00 (0001ms, 1010ms total)
T1844 029:535 JLINK_ReadMem (0x2000001A, 0x0002 Bytes, ...) -- Read from C cache (2 bytes @ 0x2000001A) -- Data:  01 00  returns 0x00 (0000ms, 1011ms total)
T19CC 030:043 JLINK_Step() -- CPU_ReadMem(64 bytes @ 0x08000400) -- Updating C cache (64 bytes @ 0x08000400) -- Read from C cache (2 bytes @ 0x08000424) -- Simulated  returns 0x00 (0006ms, 1011ms total)
T19CC 030:049 JLINK_ReadReg(R15)  returns 0x08000426 (0000ms, 1017ms total)
T19CC 030:049 JLINK_ReadReg(XPSR)  returns 0x21000000 (0000ms, 1017ms total)
T19CC 030:049 JLINK_SetBPEx(Addr = 0x08000424, Type = 0xFFFFFFF2)  returns 0x00000009 (0000ms, 1017ms total)
T19CC 030:049 JLINK_Go() -- CPU_WriteMem(4 bytes @ 0xE0002008) -- CPU_WriteMem(4 bytes @ 0xE000200C) -- CPU_WriteMem(4 bytes @ 0xE0002010) -- CPU_WriteMem(4 bytes @ 0xE0002014) -- CPU_WriteMem(4 bytes @ 0xE0002018) -- CPU_WriteMem(4 bytes @ 0xE000201C) (0016ms, 1017ms total)
T19CC 030:165 JLINK_IsHalted()  returns TRUE (0005ms, 1033ms total)
T19CC 030:170 JLINK_Halt()  returns 0x00 (0000ms, 1033ms total)
T19CC 030:170 JLINK_IsHalted()  returns TRUE (0000ms, 1033ms total)
T19CC 030:170 JLINK_IsHalted()  returns TRUE (0000ms, 1033ms total)
T19CC 030:170 JLINK_IsHalted()  returns TRUE (0000ms, 1033ms total)
T19CC 030:170 JLINK_ReadReg(R15)  returns 0x08000424 (0000ms, 1033ms total)
T19CC 030:170 JLINK_ReadReg(XPSR)  returns 0x61000000 (0000ms, 1033ms total)
T19CC 030:170 JLINK_ClrBPEx(BPHandle = 0x00000009)  returns 0x00 (0000ms, 1033ms total)
T19CC 030:170 JLINK_ReadMemU32(0xE000ED30, 0x0001 Items, ...) -- CPU_ReadMem(4 bytes @ 0xE000ED30) -- Data:  03 00 00 00  returns 0x01 (0004ms, 1033ms total)
T19CC 030:174 JLINK_ReadMemU32(0xE0001028, 0x0001 Items, ...) -- CPU_ReadMem(4 bytes @ 0xE0001028) -- Data:  01 00 00 40  returns 0x01 (0002ms, 1037ms total)
T19CC 030:176 JLINK_ReadMemU32(0xE0001038, 0x0001 Items, ...) -- CPU_ReadMem(4 bytes @ 0xE0001038) -- Data:  01 00 00 40  returns 0x01 (0001ms, 1039ms total)
T19CC 030:177 JLINK_ReadMemU32(0xE0001048, 0x0001 Items, ...) -- CPU_ReadMem(4 bytes @ 0xE0001048) -- Data:  01 00 00 40  returns 0x01 (0002ms, 1040ms total)
T19CC 030:179 JLINK_ReadMemU32(0xE0001058, 0x0001 Items, ...) -- CPU_ReadMem(4 bytes @ 0xE0001058) -- Data:  01 00 00 40  returns 0x01 (0003ms, 1042ms total)
T1844 030:182 JLINK_ReadReg(R0)  returns 0x00000001 (0000ms, 1045ms total)
T1844 030:182 JLINK_ReadReg(R1)  returns 0x20000018 (0000ms, 1045ms total)
T1844 030:182 JLINK_ReadReg(R2)  returns 0x00000000 (0000ms, 1045ms total)
T1844 030:182 JLINK_ReadReg(R3)  returns 0x00000002 (0000ms, 1045ms total)
T1844 030:182 JLINK_ReadReg(R4)  returns 0x00000000 (0000ms, 1045ms total)
T1844 030:182 JLINK_ReadReg(R5)  returns 0x20000884 (0000ms, 1045ms total)
T1844 030:182 JLINK_ReadReg(R6)  returns 0x00000000 (0001ms, 1045ms total)
T1844 030:183 JLINK_ReadReg(R7)  returns 0x00000000 (0000ms, 1046ms total)
T1844 030:183 JLINK_ReadReg(R8)  returns 0x00000000 (0000ms, 1046ms total)
T1844 030:183 JLINK_ReadReg(R9)  returns 0x20000160 (0000ms, 1046ms total)
T1844 030:183 JLINK_ReadReg(R10)  returns 0x08005C20 (0000ms, 1046ms total)
T1844 030:183 JLINK_ReadReg(R11)  returns 0x00000000 (0000ms, 1046ms total)
T1844 030:183 JLINK_ReadReg(R12)  returns 0x00000030 (0000ms, 1046ms total)
T1844 030:183 JLINK_ReadReg(R13)  returns 0x20000EE8 (0000ms, 1046ms total)
T1844 030:183 JLINK_ReadReg(R14)  returns 0x08000417 (0000ms, 1046ms total)
T1844 030:183 JLINK_ReadReg(R15)  returns 0x08000424 (0000ms, 1046ms total)
T1844 030:183 JLINK_ReadReg(XPSR)  returns 0x61000000 (0000ms, 1046ms total)
T1844 030:183 JLINK_ReadReg(MSP)  returns 0x20000EE8 (0000ms, 1046ms total)
T1844 030:183 JLINK_ReadReg(PSP)  returns 0x20000800 (0000ms, 1046ms total)
T1844 030:183 JLINK_ReadReg(BASEPRI)  returns 0x00000000 (0000ms, 1046ms total)
T1844 030:183 JLINK_ReadReg(CONTROL)  returns 0x00000000 (0000ms, 1046ms total)
T1844 030:183 JLINK_ReadReg(FAULTMASK)  returns 0x00000000 (0000ms, 1046ms total)
T1844 030:183 JLINK_ReadReg(BASEPRI_MAX)  returns 0x00000000 (0000ms, 1046ms total)
T1844 030:183 JLINK_ReadMem (0x20000018, 0x0002 Bytes, ...) -- CPU_ReadMem(64 bytes @ 0x20000000) -- Updating C cache (64 bytes @ 0x20000000) -- Read from C cache (2 bytes @ 0x20000018) -- Data:  15 09  returns 0x00 (0002ms, 1046ms total)
T1844 030:185 JLINK_ReadMem (0x2000001A, 0x0002 Bytes, ...) -- Read from C cache (2 bytes @ 0x2000001A) -- Data:  01 00  returns 0x00 (0000ms, 1048ms total)
T19CC 030:589 JLINK_Step() -- CPU_ReadMem(64 bytes @ 0x08000400) -- Updating C cache (64 bytes @ 0x08000400) -- Read from C cache (2 bytes @ 0x08000424) -- Simulated  returns 0x00 (0004ms, 1048ms total)
T19CC 030:593 JLINK_ReadReg(R15)  returns 0x08000426 (0000ms, 1052ms total)
T19CC 030:593 JLINK_ReadReg(XPSR)  returns 0x21000000 (0000ms, 1052ms total)
T19CC 030:593 JLINK_SetBPEx(Addr = 0x08000424, Type = 0xFFFFFFF2)  returns 0x0000000A (0000ms, 1052ms total)
T19CC 030:593 JLINK_Go() -- CPU_WriteMem(4 bytes @ 0xE0002008) -- CPU_WriteMem(4 bytes @ 0xE000200C) -- CPU_WriteMem(4 bytes @ 0xE0002010) -- CPU_WriteMem(4 bytes @ 0xE0002014) -- CPU_WriteMem(4 bytes @ 0xE0002018) -- CPU_WriteMem(4 bytes @ 0xE000201C) (0011ms, 1052ms total)
T19CC 030:704 JLINK_IsHalted()  returns TRUE (0004ms, 1063ms total)
T19CC 030:708 JLINK_Halt()  returns 0x00 (0000ms, 1063ms total)
T19CC 030:708 JLINK_IsHalted()  returns TRUE (0000ms, 1063ms total)
T19CC 030:708 JLINK_IsHalted()  returns TRUE (0000ms, 1063ms total)
T19CC 030:708 JLINK_IsHalted()  returns TRUE (0000ms, 1063ms total)
T19CC 030:709 JLINK_ReadReg(R15)  returns 0x08000424 (0000ms, 1063ms total)
T19CC 030:709 JLINK_ReadReg(XPSR)  returns 0x61000000 (0000ms, 1063ms total)
T19CC 030:709 JLINK_ClrBPEx(BPHandle = 0x0000000A)  returns 0x00 (0000ms, 1063ms total)
T19CC 030:709 JLINK_ReadMemU32(0xE000ED30, 0x0001 Items, ...) -- CPU_ReadMem(4 bytes @ 0xE000ED30) -- Data:  03 00 00 00  returns 0x01 (0001ms, 1063ms total)
T19CC 030:710 JLINK_ReadMemU32(0xE0001028, 0x0001 Items, ...) -- CPU_ReadMem(4 bytes @ 0xE0001028) -- Data:  01 00 00 40  returns 0x01 (0001ms, 1064ms total)
T19CC 030:711 JLINK_ReadMemU32(0xE0001038, 0x0001 Items, ...) -- CPU_ReadMem(4 bytes @ 0xE0001038) -- Data:  01 00 00 40  returns 0x01 (0001ms, 1065ms total)
T19CC 030:712 JLINK_ReadMemU32(0xE0001048, 0x0001 Items, ...) -- CPU_ReadMem(4 bytes @ 0xE0001048) -- Data:  01 00 00 40  returns 0x01 (0001ms, 1066ms total)
T19CC 030:713 JLINK_ReadMemU32(0xE0001058, 0x0001 Items, ...) -- CPU_ReadMem(4 bytes @ 0xE0001058) -- Data:  01 00 00 40  returns 0x01 (0001ms, 1067ms total)
T1844 030:715 JLINK_ReadReg(R0)  returns 0x00000002 (0000ms, 1068ms total)
